# GHZ S DB R 50.000000000000
0.001000000000 0.055135192963 -10.341993077888
0.002333111000 0.023414378237 -24.876905581136
0.003666222000 -0.021377588111 -38.895905045813
0.004999333000 -0.022365903395 -52.974712992938
0.006332444000 -0.055461196863 -67.054682025554
0.007665555000 -0.083834987016 -81.181340919082
0.008998666000 -0.118948954647 -95.440884631746
0.010331777000 -0.185726550623 -109.797311326462
0.011664888000 -0.279824693477 -124.249443692697
0.012998000000 -0.469047033986 -139.570953669488
0.014331111000 -1.481089980472 -153.525507650847
0.015664222000 -0.589851232612 -160.073974819738
0.016997333000 -0.408307310315 -176.322905967259
0.018330444000 -0.416106128826 168.766779690342
0.019663555000 -0.453904910181 154.187553754272
0.020996666000 -0.509907485558 139.646278690474
0.022329777000 -0.605267685173 124.996054524610
0.023662888000 -0.853939417849 110.228701452915
0.024996000000 -1.334352745742 97.648895258172
0.026329111000 -0.924203802497 86.630801891911
0.027662222000 -0.738832518658 72.404396392191
0.028995333000 -0.675975243120 57.930085770307
0.030328444000 -0.686697292177 43.430585157535
0.031661555000 -0.770838578691 28.723371250069
0.032994666000 -0.964913130679 14.121874586175
0.034327777000 -1.376500828506 0.642673986209
0.035660888000 -1.507886540782 -9.489390699608
0.036994000000 -1.061706854312 -21.572241212844
0.038327111000 -0.805318934202 -36.159368772249
0.039660222000 -0.688311872162 -50.809489346780
0.040993333000 -0.633255524239 -65.399117861565
0.042326444000 -0.605528582214 -79.925067393774
0.043659555000 -0.602454618713 -94.413705596121
0.044992666000 -0.609927453918 -108.792080922779
0.046325777000 -0.625020651789 -123.097248209823
0.047658888000 -0.644331930974 -137.408893840255
0.048992000000 -0.669808845319 -151.691177366315
0.050325111000 -0.691856686854 -165.979983043992
0.051658222000 -0.719177976522 179.739659384911
0.052991333000 -0.744569239835 165.439264021275
0.054324444000 -0.765728777108 151.136791665147
0.055657555000 -0.788506957957 136.729236668013
0.056990666000 -0.832655506646 122.289041833046
0.058323777000 -0.877643863687 107.923222208978
0.059656888000 -0.913561576628 93.408431055812
0.060990000000 -0.990305030600 78.775621668736
0.062323111000 -1.068100003786 63.857001498595
0.063656222000 -1.138621394508 48.950690612807
0.064989333000 -1.258320372322 34.077796955008
0.066322444000 -1.391576702082 19.451985913105
0.067655555000 -1.518184091013 5.430629673530
0.068988666000 -1.417218670624 -8.977641394699
0.070321777000 -1.395486431804 -24.443119266024
0.071654888000 -1.456408211760 -40.136861607974
0.072988000000 -1.547247987641 -55.695589238291
0.074321111000 -1.672689105488 -71.371642309073
0.075654222000 -1.842802405365 -86.956762448726
0.076987333000 -2.058761764721 -102.286565514737
0.078320444000 -2.341759310370 -117.429588069237
0.079653555000 -2.643414481091 -131.095981789454
0.080986666000 -2.656420552034 -144.737481568354
0.082319777000 -2.702325952133 -159.521705149666
0.083652888000 -2.803137237822 -174.287942988828
0.084986000000 -2.905873865611 170.804838077641
0.086319111000 -3.029332897641 155.969793695375
0.087652222000 -3.090937497534 140.872238144422
0.088985333000 -3.277166368093 125.005216424933
0.090318444000 -3.560168854472 109.904469804370
0.091651555000 -3.791572753115 95.130875206544
0.092984666000 -3.995900466426 80.196732523227
0.094317777000 -4.229317234616 65.061473379228
0.095650888000 -4.490997612132 50.113833720722
0.096984000000 -4.714871598140 34.929085449221
0.098317111000 -4.946049937840 20.945776791419
0.099650222000 -5.079714882076 4.449004360308
0.100983333000 -5.225607335174 -11.638548685068
0.102316444000 -5.439284172787 -28.498404407905
0.103649555000 -5.732050241838 -45.339437501047
0.104982666000 -6.006048662968 -62.275316937721
0.106315777000 -6.201518059591 -79.607620524837
0.107648888000 -6.413252969123 -99.481593862700
0.108982000000 -7.105530686045 -118.693853057939
0.110315111000 -7.777129327315 -137.204172851645
0.111648222000 -8.580809995586 -155.082274734347
0.112981333000 -9.425700844201 -171.632244613809
0.114314444000 -10.252366010717 172.835262678854
0.115647555000 -10.954219775567 157.661711289448
0.116980666000 -12.181729521337 144.549162198467
0.118313777000 -11.901841690259 138.245339585673
0.119646888000 -12.381622035095 121.178833543711
0.120980000000 -12.290289114156 111.035021537889
0.122313111000 -11.558196435511 97.707573739893
0.123646222000 -10.861705040996 75.495825497284
0.124979333000 -11.812107327930 54.882271524348
0.126312444000 -12.320189349485 38.431924781142
0.127645555000 -12.771361221743 20.978258186212
0.128978666000 -13.214551150245 2.584841643226
0.130311777000 -13.946880395432 -16.375720672759
0.131644888000 -14.504819623696 -34.411811755730
0.132978000000 -14.872025910725 -53.435819611824
0.134311111000 -15.318288991058 -76.095628881834
0.135644222000 -15.831676817766 -96.121526337597
0.136977333000 -16.371740774774 -117.858392429366
0.138310444000 -16.286814250652 -136.906240872081
0.139643555000 -16.149085575640 -156.991082449547
0.140976666000 -15.741705102892 -175.199802098559
0.142309777000 -15.107158895161 164.016308281630
0.143642888000 -14.758304657725 144.146953761810
0.144976000000 -14.374768996452 126.805932900988
0.146309111000 -13.741042935375 109.733263818247
0.147642222000 -13.101847947194 91.365898385287
0.148975333000 -12.688975219627 71.886590983796
0.150308444000 -12.637986567201 52.859476824715
0.151641555000 -12.717999922160 35.618770735570
0.152974666000 -12.702939447717 18.455178863889
0.154307777000 -12.790077618053 0.664470685697
0.155640888000 -13.064213138061 -17.277331062451
0.156974000000 -13.438731965455 -33.864020712437
0.158307111000 -13.581504532421 -50.136599493707
0.159640222000 -13.586386479643 -67.942013881366
0.160973333000 -13.650087151204 -87.481187514473
0.162306444000 -13.874850473412 -107.895910422279
0.163639555000 -14.150496546404 -127.726545308644
0.164972666000 -14.382248252603 -147.765035296858
0.166305777000 -14.516308453205 -167.618093685964
0.167638888000 -14.663364193638 172.454333587807
0.168972000000 -14.777184643444 153.032195088452
0.170305111000 -14.908523484099 134.366829217697
0.171638222000 -15.035471447367 117.073713301683
0.172971333000 -14.889521223855 101.473900658549
0.174304444000 -14.586760915427 83.830793160445
0.175637555000 -14.603441938219 66.435302431923
0.176970666000 -14.635262271563 50.087909767267
0.178303777000 -14.658183726974 34.827245177134
0.179636888000 -14.576918690360 18.954856411228
0.180970000000 -14.530721324595 2.190406857487
0.182303111000 -14.701944501259 -15.124645946619
0.183636222000 -15.013972476686 -31.660628699084
0.184969333000 -15.389978155255 -48.101247117252
0.186302444000 -15.782796117452 -63.578686140340
0.187635555000 -16.001078666648 -78.568564468470
0.188968666000 -16.075536615441 -94.777401088405
0.190301777000 -16.128404388348 -113.120911841139
0.191634888000 -16.259214363161 -130.887336152803
0.192968000000 -16.391351855666 -149.542146830315
0.194301111000 -16.567480233540 -168.155141992907
0.195634222000 -16.736517959649 174.011046497542
0.196967333000 -16.689167447205 156.686593315080
0.198300444000 -16.537512155494 138.178137035606
0.199633555000 -16.555569745867 119.264988055903
0.200966666000 -16.673845987765 101.963213500250
0.202299777000 -16.732387268381 85.923393770033
0.203632888000 -16.633175805275 70.272793460628
0.204966000000 -16.507473619692 54.750274395512
0.206299111000 -16.271118470013 39.185530896327
0.207632222000 -16.054330364207 22.601805933972
0.208965333000 -15.973636266038 5.412676145989
0.210298444000 -16.028311732651 -11.803764497604
0.211631555000 -16.317366951414 -28.961518093919
0.212964666000 -16.821073979862 -43.709083754799
0.214297777000 -16.895130346923 -57.091372052922
0.215630888000 -16.910794193229 -71.889241183152
0.216964000000 -17.033852592468 -87.056413392934
0.218297111000 -17.045125087300 -101.526887341970
0.219630222000 -16.925392542360 -116.002220348544
0.220963333000 -16.711948027606 -131.031408655944
0.222296444000 -16.498629201702 -146.874400035432
0.223629555000 -16.332827076679 -164.083274523258
0.224962666000 -16.436899403394 178.193219599698
0.226295777000 -16.798893744046 161.583015306189
0.227628888000 -17.217827889319 146.861320029936
0.228962000000 -17.619859462973 133.518296627060
0.230295111000 -17.942172297007 121.469984629488
0.231628222000 -18.130401147405 110.353776046832
0.232961333000 -18.177839724658 99.485645604579
0.234294444000 -18.100185877288 88.757649066381
0.235627555000 -17.902391815398 77.857668845035
0.236960666000 -17.572629278163 65.925302415376
0.238293777000 -17.362356158354 52.714057281457
0.239626888000 -17.301153599372 39.542397471479
0.240960000000 -17.294700232064 27.572882751160
0.242293111000 -17.052230529509 16.095657099407
0.243626222000 -16.544455671461 3.729355197400
0.244959333000 -16.017511404899 -10.930912724232
0.246292444000 -15.592022805563 -27.167978487293
0.247625555000 -15.462056511943 -43.705346294056
0.248958666000 -15.311118888726 -58.966188198551
0.250291777000 -15.042862387873 -74.564529620907
0.251624888000 -14.753533409599 -91.143679351130
0.252958000000 -14.670240067926 -108.430540458578
0.254291111000 -14.962450823504 -123.464707965753
0.255624222000 -14.655848233633 -135.386566718966
0.256957333000 -14.241039466912 -150.435380357341
0.258290444000 -14.001978206629 -165.755178648411
0.259623555000 -13.949750126153 -179.860917056468
0.260956666000 -13.857329146301 167.500133790607
0.262289777000 -13.623518366052 155.395467618723
0.263622888000 -13.332745819654 143.049273075615
0.264956000000 -13.113883130298 131.020629288449
0.266289111000 -12.602326520788 120.345029994391
0.267622222000 -12.321263373903 104.539293784476
0.268955333000 -12.239172220245 91.733443204587
0.270288444000 -11.976826776613 80.876104678165
0.271621555000 -11.882125746430 66.693261654710
0.272954666000 -11.819163235504 53.134638172131
0.274287777000 -11.790319364451 40.334582547812
0.275620888000 -11.723724402980 26.987355780416
0.276954000000 -11.705000208737 12.588592602661
0.278287111000 -11.772734418550 -1.612464910491
0.279620222000 -11.972984819101 -16.389002863113
0.280953333000 -12.034264297924 -30.616314166852
0.282286444000 -12.185389704197 -45.698541854563
0.283619555000 -12.173367642674 -61.720750577123
0.284952666000 -12.361708778278 -78.125775013572
0.286285777000 -12.527095731937 -94.296596681308
0.287618888000 -12.599092896085 -110.427130559400
0.288952000000 -12.621128433203 -126.842135803829
0.290285111000 -12.578433885498 -143.409395043645
0.291618222000 -12.474044468319 -159.866438867690
0.292951333000 -12.318196649175 -176.291180696034
0.294284444000 -12.138434222061 167.445314116151
0.295617555000 -11.982035477825 150.986607420688
0.296950666000 -11.895745364345 134.666597674316
0.298283777000 -11.915964426994 119.361682593817
0.299616888000 -11.929942488944 104.883203977525
0.300950000000 -11.931691827585 91.102993729587
0.302283111000 -11.879181796551 77.408959619844
0.303616222000 -11.849030524164 63.731821180289
0.304949333000 -11.889656912182 50.068310823572
0.306282444000 -12.003796831332 36.708208050259
0.307615555000 -12.112986486419 23.689811174788
0.308948666000 -12.144688827631 10.516748320065
0.310281777000 -12.182805914412 -3.631121448332
0.311614888000 -12.408436617211 -18.546580480686
0.312948000000 -12.762954726964 -33.384552046014
0.314281111000 -13.184158023989 -47.978918542759
0.315614222000 -13.568798754576 -62.319537051469
0.316947333000 -13.949302699445 -76.839381870293
0.318280444000 -14.295327449921 -91.827113272972
0.319613555000 -14.579259953317 -106.959354478110
0.320946666000 -14.822019072468 -122.680966624476
0.322279777000 -15.047060781863 -138.636924445559
0.323612888000 -15.183629523830 -154.492246787698
0.324946000000 -15.250504305842 -170.654347645102
0.326279111000 -15.279146028005 173.553399232686
0.327612222000 -15.276913812202 158.156860545259
0.328945333000 -15.196927769428 142.939584765920
0.330278444000 -15.148017758431 128.192795933855
0.331611555000 -15.080126627115 114.252360912237
0.332944666000 -14.966642223913 100.803000643483
0.334277777000 -14.890673029366 87.031445162992
0.335610888000 -14.913657462793 73.879484834404
0.336944000000 -14.953816875566 61.508407943334
0.338277111000 -14.965149421118 49.294281817664
0.339610222000 -15.037387765221 37.002686579150
0.340943333000 -15.178347043550 24.550320198512
0.342276444000 -15.386967568506 11.977134765127
0.343609555000 -15.759322992660 -0.752519675784
0.344942666000 -16.273842208616 -13.435425591996
0.346275777000 -16.927420001594 -25.563907837766
0.347608888000 -17.626829572476 -37.532409068312
0.348942000000 -18.418278148346 -49.803193792464
0.350275111000 -19.354768534861 -63.298687242101
0.351608222000 -20.585102781699 -77.185485459175
0.352941333000 -22.145338914630 -92.068072995560
0.354274444000 -24.123319270421 -107.726609898511
0.355607555000 -26.724722218561 -126.134865014494
0.356940666000 -30.169552832885 -151.410368470821
0.358273777000 -34.945641542738 162.734620746977
0.359606888000 -35.441742515597 90.725188884501
0.360940000000 -31.481091004835 47.396879754990
0.362273111000 -28.334254928938 24.963827845623
0.363606222000 -25.872388804469 7.452651398519
0.364939333000 -23.967945692983 -9.057324648188
0.366272444000 -22.488092199235 -24.830102824179
0.367605555000 -21.301051675492 -40.153178275867
0.368938666000 -20.270679278770 -55.105842934759
0.370271777000 -19.291278290582 -69.900634737485
0.371604888000 -18.287497203462 -84.824335396736
0.372938000000 -17.261830312253 -100.710827101475
0.374271111000 -16.314465873465 -117.836321663838
0.375604222000 -15.573490093014 -135.441594400114
0.376937333000 -14.966880645991 -152.309273244006
0.378270444000 -14.490407233782 -168.839160156113
0.379603555000 -14.012406962472 175.598273717636
0.380936666000 -13.524535642416 160.593130896404
0.382269777000 -13.018146543021 146.058713695096
0.383602888000 -12.504226500016 131.924780486384
0.384936000000 -11.940634625204 117.911166506590
0.386269111000 -11.374702174896 103.756442188608
0.387602222000 -10.853093410888 89.447436972019
0.388935333000 -10.389890735740 75.165986085355
0.390268444000 -9.987913809503 60.958409509739
0.391601555000 -9.652233293535 47.087903587678
0.392934666000 -9.339067451364 33.479635134213
0.394267777000 -8.978995873418 20.129871220755
0.395600888000 -8.534989148272 6.121826078838
0.396934000000 -8.321786658369 -9.046805669714
0.398267111000 -8.219690897079 -22.877229151478
0.399600222000 -8.056254721409 -36.519451359530
0.400933333000 -7.899388912447 -50.304300304710
0.402266444000 -7.733608034389 -64.159506195342
0.403599555000 -7.631665386722 -78.583913406771
0.404932666000 -7.584745201013 -92.318616594451
0.406265777000 -7.506978325058 -106.262358168112
0.407598888000 -7.436128461045 -120.217071400310
0.408932000000 -7.409480316662 -134.431021127671
0.410265111000 -7.345551401130 -148.472471641945
0.411598222000 -7.314026002847 -162.580315068890
0.412931333000 -7.284023224244 -176.906639060734
0.414264444000 -7.272386326601 168.630958620804
0.415597555000 -7.298671483136 154.079202323468
0.416930666000 -7.358134130101 139.458001938490
0.418263777000 -7.464800775116 124.954702232374
0.419596888000 -7.565164430484 110.620305324118
0.420930000000 -7.651281734371 96.319575630787
0.422263111000 -7.714178457136 81.895625133128
0.423596222000 -7.778545092814 67.231818522470
0.424929333000 -7.869256195913 52.406964547642
0.426262444000 -7.985935040858 37.485847097399
0.427595555000 -8.112513623114 22.714276623058
0.428928666000 -8.211164126107 8.093436202546
0.430261777000 -8.254744551740 -6.646426390068
0.431594888000 -8.292805767349 -21.715644279330
0.432928000000 -8.336611299286 -36.872590486590
0.434261111000 -8.374793861581 -51.944999462563
0.435594222000 -8.394582261677 -66.963282364036
0.436927333000 -8.412720360327 -81.991277148940
0.438260444000 -8.434597928551 -96.772160652253
0.439593555000 -8.427732994173 -111.382014503066
0.440926666000 -8.389784602174 -125.847988085429
0.442259777000 -8.359896559670 -140.366350701304
0.443592888000 -8.367355103079 -154.652804718545
0.444926000000 -8.385099123700 -168.589476676915
0.446259111000 -8.408723062212 177.793085882042
0.447592222000 -8.422593801731 164.405317334406
0.448925333000 -8.468411621285 151.160410834395
0.450258444000 -8.545116751519 138.336220368872
0.451591555000 -8.612569793102 125.816674585924
0.452924666000 -8.680641825460 113.305578630753
0.454257777000 -8.778980789289 100.928222013593
0.455590888000 -8.922370491746 88.675596216285
0.456924000000 -9.076143434549 76.846699311732
0.458257111000 -9.204821855471 65.139822628246
0.459590222000 -9.327036747204 53.240701916298
0.460923333000 -9.499113909755 41.156710864844
0.462256444000 -9.711040663023 29.050382522848
0.463589555000 -9.958086795775 17.033788062834
0.464922666000 -10.212169170760 5.088814335610
0.466255777000 -10.454533097104 -6.985511570861
0.467588888000 -10.722743803020 -19.511330818980
0.468922000000 -11.042497514766 -32.088563281257
0.470255111000 -11.352783461213 -44.633683447342
0.471588222000 -11.658221703017 -57.140463454424
0.472921333000 -11.943463440761 -69.692832713406
0.474254444000 -12.177570613023 -82.442518599524
0.475587555000 -12.398142087366 -95.313776013073
0.476920666000 -12.556270229388 -108.283230719912
0.478253777000 -12.670573320928 -121.316656731924
0.479586888000 -12.733022741015 -134.537333305707
0.480920000000 -12.821776717035 -147.683209790094
0.482253111000 -12.922048632401 -160.610592355853
0.483586222000 -13.008471689149 -172.790039495102
0.484919333000 -13.008093330990 175.616214245875
0.486252444000 -12.965184650409 164.062162292926
0.487585555000 -12.929211795695 152.694458785419
0.488918666000 -12.884497302871 141.587599060839
0.490251777000 -12.882679824223 130.791480138771
0.491584888000 -12.918664058659 120.677408159029
0.492918000000 -12.930833221216 111.357671272479
0.494251111000 -12.875668294030 102.349723537866
0.495584222000 -12.797680068089 93.807601280116
0.496917333000 -12.630427998092 85.306182697491
0.498250444000 -12.415317452558 76.713386249005
0.499583555000 -12.195265119408 67.841220849956
0.500916666000 -11.936033226513 59.065581565021
0.502249777000 -11.617631897681 49.658229107374
0.503582888000 -11.327840570865 39.684148724520
0.504916000000 -11.064261782046 29.382697185717
0.506249111000 -10.773788543504 18.730027834748
0.507582222000 -10.505622396272 7.511395511181
0.508915333000 -10.286540830109 -4.344423475345
0.510248444000 -10.086414369524 -16.431127984507
0.511581555000 -9.911336337674 -28.990404940402
0.512914666000 -9.766804635400 -41.952615883053
0.514247777000 -9.635226272093 -55.087362557202
0.515580888000 -9.533678360353 -68.607724500594
0.516914000000 -9.432202804984 -82.135755243091
0.518247111000 -9.327957428422 -95.681308473460
0.519580222000 -9.185492121585 -109.184974715871
0.520913333000 -9.004228339658 -122.782971989574
0.522246444000 -8.802823489472 -136.441762114665
0.523579555000 -8.577746266476 -150.103221491435
0.524912666000 -8.318279019416 -163.689015968304
0.526245777000 -8.047610059574 -177.259127026413
0.527578888000 -7.761852742479 169.017848692397
0.528912000000 -7.489958511312 155.312215996041
0.530245111000 -7.248972314846 141.735459488063
0.531578222000 -7.030808631046 128.321873790955
0.532911333000 -6.832119173963 115.046745111797
0.534244444000 -6.655211476355 101.888564293396
0.535577555000 -6.501502359976 88.802958602508
0.536910666000 -6.373071587017 75.891636754467
0.538243777000 -6.251857921508 63.140152531151
0.539576888000 -6.130104929705 50.333528459557
0.540910000000 -6.004924932851 37.464568619650
0.542243111000 -5.908283141210 24.462876382098
0.543576222000 -5.809672598795 11.446699544859
0.544909333000 -5.728623448953 -1.747226333229
0.546242444000 -5.660790084658 -15.086579921445
0.547575555000 -5.600848396716 -28.486245718751
0.548908666000 -5.549622053482 -42.038699855449
