# GHZ S DB R 50.000000000000
0.001000000000 -35.222514681093 37.624894325802 0.084699950872 -12.078658931401 -0.221855750295 -12.888520391779 -32.767679860770 17.671581129288
0.012998000000 -32.582444669398 -94.198511437506 -0.450989133013 -156.480521947267 -0.453178674770 -156.573007330379 -29.106286391574 -95.894647648355
0.024996000000 -36.525535660300 -152.163625158470 -0.670031326021 59.633940860007 -0.659066619014 59.754124346496 -32.035328362804 159.306308988216
0.036994000000 -38.272867929616 -108.643440700889 -0.731162305716 -82.258654020857 -0.731207125766 -82.306658028180 -36.251761055408 -1.223395770891
0.048992000000 -34.571105933835 103.245171200431 -0.843643240809 135.145010847118 -0.843730648048 135.096370220673 -27.430078727967 -53.221742416597
0.060990000000 -36.809651736838 -42.958541185723 -0.936604980513 -7.282021711383 -0.939027015248 -7.313889514304 -30.320775389691 -174.537805470943
0.072988000000 -26.162576807376 81.741110085438 -1.040804678474 -149.622082812414 -1.041405537369 -149.652918450329 -26.016613517330 133.612026977444
0.084986000000 -25.680139190001 -96.564511376287 -1.113160757709 67.950085858412 -1.112183740133 67.934688995790 -26.314067565199 26.807263197171
0.096984000000 -27.541685064743 101.313376961237 -1.194335053554 -74.364657738373 -1.191414414899 -74.372987901604 -26.512284588131 -88.643969124646
0.108982000000 -51.079890488002 -96.883036670576 -1.258715830686 143.330872967414 -1.257425696646 143.323198478128 -37.255058316151 97.830504477709
0.120980000000 -29.633038106399 99.813278452571 -1.331576695017 1.059860672392 -1.333784693023 1.036663914646 -31.353522692370 44.146748482259
0.132978000000 -26.285723782682 25.867465031132 -1.409445132339 -141.157333398721 -1.406506767892 -141.187371328413 -23.828113436506 -127.480754542244
0.144976000000 -32.224249560430 163.350591001936 -1.467312629618 76.675651153933 -1.467478664222 76.636115092034 -27.288299139526 159.621676321783
0.156974000000 -35.272478114464 -130.625027724869 -1.527046635787 -65.559170220576 -1.529462387811 -65.585085564393 -34.378326670234 151.846569365800
0.168972000000 -21.556952631293 48.257818418328 -1.620534030752 152.388368979362 -1.624299759383 152.387081977465 -22.638361711170 83.587561308731
0.180970000000 -26.787153191763 85.912032720574 -1.664808784281 10.064672186374 -1.664456294967 10.038293802719 -25.844544491791 98.939585556199
0.192968000000 -25.298492853882 11.291154078422 -1.721436843698 -132.041698117206 -1.720065127915 -132.048597809808 -30.967522175306 -64.778753397212
0.204966000000 -21.920199994767 -32.434825020228 -1.807535887257 85.953891658069 -1.796175413313 85.894123932919 -22.531532086524 31.354196483464
0.216964000000 -37.400833651713 -49.739761264665 -1.831885630698 -56.163385609181 -1.827059763945 -56.182171977834 -49.543846117526 56.833493545771
0.228962000000 -32.671088990063 -86.104913985849 -1.886043826218 161.659549776694 -1.879794064611 161.654090545512 -34.599911496140 -121.844911607672
0.240960000000 -29.137963217787 127.218136089421 -1.936134665039 19.475911166768 -1.936850179624 19.469239312955 -27.103270158532 94.284929239512
0.252958000000 -42.012294109600 116.326146697754 -1.989285438751 -122.660740466418 -1.988619944898 -122.647463004103 -32.177811599668 61.670598389185
0.264956000000 -19.729117692576 26.649869129870 -2.099619240856 95.314676607145 -2.095940270816 95.279801343289 -20.136127292622 -14.203529027904
0.276954000000 -25.587361735626 -66.292260902244 -2.099862828120 -46.564049786616 -2.102758784357 -46.452099782693 -26.481026367580 -177.205535911560
0.288952000000 -26.230523571941 -47.356530438372 -2.154577138933 171.142435643233 -2.150263438194 171.211560816087 -32.071498090951 -169.726982277956
0.300950000000 -21.153327187351 -141.807240713953 -2.241584764712 29.244969996029 -2.240875342481 29.128238372442 -20.488668111909 20.643367138272
0.312948000000 -21.578740686348 67.454493217800 -2.281667978998 -112.605265097860 -2.278913455350 -112.323914965104 -20.998936463980 -104.221057556319
0.324946000000 -26.563000041607 -76.514107947078 -2.309869231115 105.520758989083 -2.296778915190 105.442280925600 -24.631724206781 126.579431777477
0.336944000000 -42.630439428593 -1.085256771432 -2.329668831391 -36.758190502022 -2.327841918368 -36.711209311302 -34.358310172680 48.665675143269
0.348942000000 -31.536414687415 -146.059918785139 -2.381684604494 -178.890844716450 -2.380127795494 -178.818509199509 -30.253638319150 -26.968005928924
0.360940000000 -29.786556067382 166.313925412457 -2.422268391898 39.015655123377 -2.420617822117 39.076362392277 -30.164096197357 83.235463229045
0.372938000000 -21.861059418876 82.524048784468 -2.493813570892 -102.899212239699 -2.495066863653 -102.925024785942 -24.554920128592 -92.507301207178
0.384936000000 -30.142112197645 -18.633873034141 -2.519470629632 115.098605689175 -2.511210777362 115.219966103419 -33.181397694971 116.504171730368
0.396934000000 -38.262213428622 162.163038057080 -2.557030789157 -27.006894996532 -2.555412126258 -26.942198497800 -36.043509897781 -81.256040140504
0.408932000000 -23.888116665867 2.185822351359 -2.631115055941 -169.072567661261 -2.609501025821 -168.851964055070 -23.664779233709 -152.243954984081
0.420930000000 -24.509680187653 140.985913743414 -2.684488183504 49.138933851881 -2.674164347380 49.230083304985 -21.975956491086 139.948963961271
0.432928000000 -29.129793190895 -34.161984506620 -2.687275380851 -92.737856204942 -2.689869478880 -92.753074313553 -24.725419686426 71.019324026594
0.444926000000 -24.676516582886 73.535115684558 -2.731142672559 125.043727943024 -2.722016158960 125.161283820282 -26.034272463361 8.636180126096
0.456924000000 -23.422658371941 -8.207414957522 -2.783967852534 -16.767303945410 -2.791226064874 -16.800338204656 -25.564174899739 176.470516962443
0.468922000000 -29.132887299546 -22.290473539093 -2.811384031410 -158.850284449397 -2.812965851886 -158.784978587226 -38.909354352033 -153.180641403692
0.480920000000 -25.963426941195 -146.130119853834 -2.868633218196 59.184345630738 -2.851684280283 59.363777395532 -23.999800933360 102.177504290746
0.492918000000 -28.250422193164 149.289981263770 -2.892879892240 -82.907016580121 -2.891941371862 -82.731707032020 -29.126062262219 -175.833855527367
0.504916000000 -29.481527026328 55.233712488106 -2.947499310417 135.209364622782 -2.931329092895 135.388815719192 -26.600421777911 103.219612072723
0.516914000000 -21.301331090643 50.958617472592 -3.021204276713 -6.790364040253 -2.988203354449 -6.622056381742 -21.567809483806 118.810362456778
0.528912000000 -28.468289066291 -42.160487180048 -3.007594458370 -148.593048812035 -2.999960408945 -148.588739816490 -34.224461869410 41.812923174779
0.540910000000 -23.526501270422 -107.812137471376 -3.061947087697 69.460484307189 -3.099820343624 69.350211330150 -19.925578010896 86.435648758425
0.552908000000 -28.286588270746 63.635488529269 -3.080327589219 -72.593299580906 -3.079004918011 -72.422366607936 -24.409878006843 17.459226464519
0.564906000000 -34.696721288272 162.694111137983 -3.123164720923 145.384347980728 -3.116258812723 145.580792659403 -32.408247753079 -61.898760039143
0.576904000000 -25.732529687150 72.317841993338 -3.155770463123 3.361686189044 -3.162240175849 3.508912981479 -25.053122501274 133.478833824617
0.588902000000 -23.511016723587 94.225725315331 -3.224951608743 -138.849740467448 -3.228082594635 -138.669231364553 -22.855122824794 127.787491719651
0.600900000000 -19.441188608004 -25.263971078885 -3.322441642261 79.926165804920 -3.273136563754 80.013118628286 -18.389621836615 43.331289064057
0.612898000000 -33.464438226467 -89.935612762692 -3.283539034306 -62.190537849960 -3.256857874431 -62.128052066009 -31.343113265711 105.564470969084
0.624896000000 -26.633133815674 117.812410340789 -3.299602960019 155.905655982662 -3.317835930399 156.025587636554 -23.422616211513 48.344492904137
0.636894000000 -26.606950095230 143.294114629999 -3.326074290492 13.800738409699 -3.357947814624 13.908077993373 -22.401504810608 48.418248475950
0.648892000000 -24.084489533688 24.649141435579 -3.390817967770 -128.202338772566 -3.374695138541 -127.975435596913 -24.404780612658 -26.619165932467
0.660890000000 -20.009213544293 34.294269254574 -3.467207615500 89.503305928596 -3.439930309882 89.709850459097 -21.842719051098 -21.141315152442
0.672888000000 -21.968673971244 -72.137322889820 -3.484620093326 -51.616873895527 -3.505192307687 -51.596816699546 -21.958416233318 -175.469845371335
0.684886000000 -28.310741049407 39.954974620773 -3.488879689390 166.140618229739 -3.490668969637 166.348774741906 -24.674167246961 106.756727050280
0.696884000000 -26.117829060998 -96.313619937063 -3.544141069167 24.323619838422 -3.519644396907 24.427404170699 -23.597873106818 14.448086389267
0.708882000000 -32.614965316559 98.624176530073 -3.551168669738 -117.780818510362 -3.542791039406 -117.550804584332 -36.125210300054 175.267765821712
0.720880000000 -26.828498563712 -44.035242479420 -3.614159061568 100.436285078522 -3.578250890455 100.305689862006 -22.277708919088 93.793371367121
0.732878000000 -34.216226292723 106.443389544001 -3.600188369520 -41.489305482528 -3.613016865916 -41.402343618677 -24.885059937046 38.769168511100
0.744876000000 -24.658866343660 -179.033397805056 -3.651696108971 176.284074973136 -3.691223507117 176.754306064582 -22.651197406218 2.934657564274
0.756874000000 -22.799304753296 52.113549191374 -3.722681819544 34.672769091395 -3.676705935034 34.607046188515 -26.885676607259 -141.647495318174
0.768872000000 -32.337323348687 -97.607093184487 -3.702385847010 -107.457995987007 -3.738582989471 -107.127132141209 -23.889504946185 88.488573055841
0.780870000000 -23.040994085328 73.915869513902 -3.787364460081 110.639871858156 -3.768516471624 110.715846118687 -25.070938227964 -5.881777379235
0.792868000000 -23.825394600494 -35.821813326993 -3.798420371920 -31.177979724456 -3.818490879932 -30.825333699317 -23.308601288689 -172.699548523166
0.804866000000 -32.969245505461 29.681196163198 -3.836171003519 -173.212285825792 -3.823534603170 -172.916519336776 -25.279161256916 122.483477833036
0.816864000000 -22.483214355169 -122.332438008506 -3.925226397732 45.303648574457 -3.889874520732 45.071364066562 -19.237256766053 63.803333863157
0.828862000000 -38.357723672146 65.018538691117 -3.876984783419 -96.646357229386 -3.877458973909 -96.592511383966 -27.303322001324 26.462810806383
0.840860000000 -22.929057257533 150.705070997071 -3.939794756119 121.079607105852 -3.955599704068 121.538065690595 -28.218155922790 -62.205345255966
0.852858000000 -20.243425839752 69.423790377780 -3.958356622645 -20.410217567535 -3.930213877439 -20.409058692513 -21.723396771440 98.792998681278
0.864856000000 -27.546661172060 2.655998348314 -3.980718982302 -162.583640867649 -3.981254031243 -162.467299068881 -38.848017508724 34.328488108013
0.876854000000 -28.882217660299 -117.429958321057 -4.007286908460 55.322913198873 -4.032254243301 55.831336804942 -22.844129715122 72.138762950587
0.888852000000 -24.471157860587 96.954573626642 -4.067075809581 -86.318159831494 -4.048952368658 -86.208644273249 -32.569749008221 -21.396594799372
0.900850000000 -28.271664356081 19.799764883707 -4.088470755770 131.534440889631 -4.090125391180 131.937073858199 -25.013683211218 110.574696885701
0.912848000000 -23.360408524465 110.536655041723 -4.154700358886 -10.298992766983 -4.156038905737 -10.175572807141 -21.289593501975 60.269044290362
0.924846000000 -25.188793721708 -3.378041788207 -4.149982877015 -152.040281410805 -4.132518786110 -151.797581479832 -26.284505991725 -26.225233029348
0.936844000000 -27.850078613791 54.512946945152 -4.173115675441 65.900960016400 -4.168580091286 66.214563287912 -43.877985296965 51.726199204029
0.948842000000 -20.836947070432 3.691049043271 -4.199932809103 -75.902776184211 -4.201987762578 -76.116945050708 -21.404720113702 59.222758906993
0.960840000000 -25.826313122473 -86.492911318716 -4.270514973122 142.112819972545 -4.286944614040 142.255297105556 -30.510671299714 -123.298191293638
0.972838000000 -35.482978648289 140.191098696636 -4.248714695806 0.013539949456 -4.272983634631 0.285419883692 -25.794078771209 104.441941937556
0.984836000000 -21.431132985625 166.207954822360 -4.339560659099 -142.400345440874 -4.357272205079 -141.682569339019 -17.529481448543 88.158689310898
0.996834000000 -17.896617408682 28.968475791862 -4.506698382799 76.814081858557 -4.491051360501 77.117092855870 -17.028756652567 4.908977700487
1.008832000000 -44.535421771624 -6.969380649890 -4.365942168575 -64.917266834772 -4.364668000903 -64.703989752857 -35.033538142531 -74.999653504394
1.020830000000 -28.297518850527 -28.393512263790 -4.412903995605 152.764771419818 -4.368931688892 153.148288309345 -29.112178810762 159.140251255985
1.032828000000 -33.289503978591 175.621637979738 -4.438329333613 11.187724963281 -4.433148750537 11.125599442549 -23.916983129432 69.801127282908
1.044826000000 -28.623473120675 -95.060152019038 -4.434169164720 -130.723822271687 -4.488251263240 -131.029931057798 -21.457680097220 54.268877885722
1.056824000000 -33.867878287251 25.069943303822 -4.440409592462 87.061386485729 -4.489675094052 87.091482796475 -22.394272549998 39.640388581366
1.068822000000 -22.969720307813 134.934128265487 -4.529239079773 -55.235608084335 -4.521780359830 -54.469804583895 -21.381174134020 -7.010348730422
1.080820000000 -22.418360565290 133.478662309941 -4.593874003002 162.568712961979 -4.548825574497 163.255997382188 -22.138317447483 -1.187361120124
1.092818000000 -17.408197726705 31.564223780908 -4.708211626964 21.973327513976 -4.711151834874 21.471242780119 -19.855538338083 -119.237016107696
1.104816000000 -28.110717233594 -78.870966455007 -4.630680813213 -120.190791280924 -4.627206102030 -119.708949002779 -24.271418282189 104.448372689741
1.116814000000 -31.747994631158 162.209665055482 -4.643512782701 97.609969221428 -4.637396971082 97.807188736108 -28.326327502823 133.671211938276
1.128812000000 -22.811430848006 46.427466249347 -4.748990127095 -44.294759492116 -4.702929730889 -44.003582027953 -19.735718671092 83.698429935101
1.140810000000 -20.985329699385 -166.197812489174 -4.734595753363 174.243558516106 -4.854451557438 173.983918267037 -18.335982544766 12.051293860567
1.152808000000 -20.146436885812 93.446047989782 -4.783168790843 32.317451112609 -4.743138116656 32.940003440238 -37.690133569989 175.002180555417
1.164806000000 -19.788373040011 48.003045982675 -4.747745053470 -110.002723115011 -4.716905152678 -109.592077035006 -22.718455563001 -7.663646621975
1.176804000000 -18.732684285735 64.614098515089 -4.837249384527 107.575950491626 -4.762838263707 107.864487459508 -23.185953016429 -15.591029157258
1.188802000000 -17.156528161118 -6.800772814215 -4.902524156274 -32.787936680920 -5.004089750459 -33.466935093455 -20.003630936893 172.212531001379
1.200800000000 -29.057116816714 -43.719049715252 -4.860054903686 -175.216062010324 -4.879740530233 -174.741824313763 -26.650641938683 67.080740679793
1.212798000000 -23.363526327034 -78.407160107995 -4.961920814706 42.724674468203 -4.893464433389 43.204590104902 -20.906631862544 32.052306195329
1.224796000000 -24.383070130850 123.621459696352 -4.893611822274 -98.925088615719 -4.960262631212 -98.829705555810 -27.075304233261 -101.022558541636
1.236794000000 -32.431848260789 -16.787476305842 -4.982108029111 118.876603633300 -4.916891954836 119.241836077606 -23.384561271590 135.905515123095
1.248792000000 -21.346511185807 97.760550484454 -5.007385646346 -22.412966522062 -5.005894993335 -22.121995259759 -19.675875600868 72.420250693469
1.260790000000 -25.126770299043 11.814013814141 -4.976517335285 -164.658295657809 -4.949801286820 -164.614052081854 -34.379525338920 12.718499150688
1.272788000000 -33.545479155907 -140.943038892137 -4.972322570612 53.473230293933 -5.079788807550 53.379053005110 -20.483921003745 85.053276699129
1.284786000000 -19.140322261400 45.244286302728 -5.045189685762 -89.041190765481 -5.054353429030 -88.699319635216 -17.572223004025 27.384601630909
1.296784000000 -32.980027343112 94.583010629335 -5.101906364725 129.526140706761 -5.073686829999 130.016963243321 -25.868319777308 -11.848216673798
1.308782000000 -24.975515243891 79.036172200283 -5.101719558061 -12.430534873639 -5.101050174986 -12.221489056213 -33.414807260403 61.738501881113
1.320780000000 -19.231502099698 37.716445021535 -5.156175567188 -154.356401568929 -5.200653076810 -153.880057248550 -30.582562210777 -144.578336462086
1.332778000000 -23.318895316183 -24.492069081493 -5.230549790773 64.034156604765 -5.134328068200 64.360813157516 -20.261075089673 67.859323977769
1.344776000000 -19.383661239053 22.080525404016 -5.242208731862 -77.726320395696 -5.159102189377 -77.536550195963 -18.614328587353 41.427574073411
1.356774000000 -25.896425284039 -67.568554668101 -5.220217993693 140.484781481425 -5.224294366894 140.353361927695 -31.168681227899 -38.926445882549
1.368772000000 -43.967965232757 -151.361714981052 -5.181132784414 -1.643038579467 -5.253328441743 -1.444810979967 -25.806242529455 40.572444360944
1.380770000000 -40.301792702845 -17.088275619700 -5.216375569236 -144.256264858237 -5.289977862283 -143.796890680938 -22.939796753201 36.137647302652
1.392768000000 -18.067705964965 39.296546053763 -5.459183165815 73.338490279099 -5.333081452674 73.496460499782 -19.735390013915 -23.756537733826
1.404766000000 -19.715329508869 -64.793606543399 -5.390549025515 -66.793325375033 -5.540987449757 -66.675164447018 -19.912855778579 170.027241194778
1.416764000000 -23.439905974302 95.776460495764 -5.420735225199 150.474784357425 -5.403728440467 151.146897715184 -18.687068437165 76.652990245660
1.428762000000 -23.793892168337 -12.661656197229 -5.465725066863 8.956902858796 -5.423054485854 9.345289166177 -24.213651176278 24.744935418674
1.440760000000 -18.194520931178 -66.162056905915 -5.592229059233 -132.579327550212 -5.490617098449 -133.251634165429 -16.703022332397 27.358331079037
1.452758000000 -25.647831828633 143.910430201084 -5.416210632108 85.713923471625 -5.525408337049 86.196635905299 -23.943511227110 -40.970418416680
1.464756000000 -38.938436878605 -141.552294231840 -5.444665659435 -56.786794822772 -5.498103509032 -56.562283493101 -31.880864429888 9.259598203701
1.476754000000 -18.928162918696 170.628100390794 -5.506328664772 160.276151167752 -5.673040225415 162.130880674007 -19.430600126226 -2.020984915670
1.488752000000 -15.508345400939 67.458481633645 -5.808508550253 20.250495983855 -5.507179823076 19.519819886579 -20.368383092062 -158.044439052749
1.500750000000 -18.401173446008 -34.934070049944 -5.579710619691 -122.278096101924 -5.840809568307 -121.456609632197 -17.537333674347 50.569450839538
1.512748000000 -26.232780993090 150.832320276372 -5.669422521243 96.814124807568 -5.578381215098 97.227172265117 -26.215970980337 -45.753800887871
1.524746000000 -29.673435207711 86.489784124674 -5.606241897159 -45.486547898520 -5.610970040685 -45.254378105997 -48.663053986766 -177.724871122125
1.536744000000 -28.215635837201 35.260509599623 -5.636334533207 172.062917744047 -5.646256976053 172.695560552572 -26.872862145174 156.114132769840
1.548742000000 -21.943154172296 162.738413121457 -5.826041721932 30.412631407128 -5.809986454762 30.382397886581 -18.065678303101 91.523206715392
1.560740000000 -17.985615518799 61.593345736272 -5.677538480136 -110.644004417134 -5.662879886751 -110.170025529084 -19.966244326512 13.919831600870
1.572738000000 -16.627239376677 47.064508792187 -5.668649014292 107.099312886878 -5.610716036817 106.861378796544 -18.390870853356 34.731997208016
1.584736000000 -20.263824032996 -2.640863795619 -5.750363692601 -34.674842621210 -5.785106234680 -35.500313964932 -34.416351704411 71.246992032278
1.596734000000 -26.735449371140 -65.932605409467 -5.728411460248 -177.410886715139 -5.877617095763 -176.383384486817 -21.291141450601 18.359781106006
