# GHZ S DB R 50.000000000000
0.001000000000 -12.564812498484 -127.833390109824 -6.259910042764 -74.097855817269 -64.637531983984 -121.343440296193 -40.539366049245 -173.197825710851
0.004001000000 -15.952860176007 156.987540457007 -0.818666907153 -131.510274973386 -70.548561743463 148.452564353385 -42.382076938038 95.094196475450
0.007002001000 -15.009162202260 124.286006508637 0.691441829286 -145.909035786938 -64.811419653805 88.461812453584 -44.229535247414 60.644867256690
0.010003001000 -13.743125007970 102.259508405295 1.545217318763 -152.732764028038 -58.564775050275 93.381683914402 -45.571038581117 39.917444317425
0.013004002000 -12.595889060692 86.046036495405 2.216233074187 -157.135069667270 -55.858093505285 80.800747825112 -46.802865857275 24.743198542561
0.016005002000 -11.657345821859 73.396099479144 2.777301933665 -161.133397504721 -53.818492829036 76.202229234621 -47.628818489788 9.815445606736
0.019006003000 -10.978852153823 62.990689329837 3.195441675997 -164.675676300741 -52.791987689553 66.693299590669 -48.630818853417 0.742911090667
0.022007003000 -10.494029176555 54.386111430933 3.522909099061 -167.827412406565 -52.409591419278 60.042613218256 -49.086020626025 -8.944503110905
0.025008004000 -10.216584423668 46.102051405916 3.705756824868 -171.796078396734 -51.472971018836 50.974339421158 -50.115113980730 -20.733502802999
0.028009004000 -9.952950000059 40.344552445536 3.914141566153 -174.386915556009 -50.818034381163 44.463219234625 -50.568647308492 -25.689505947925
0.031010005000 -9.772006135383 35.337086212245 4.075312199817 -176.731331846021 -51.434718631704 45.236617508703 -51.564705328504 -31.740127694339
0.034011005000 -9.686386313060 29.977289979579 4.150312840303 -179.489576805180 -50.310195173525 37.126340807995 -51.990294043486 -36.140743473986
0.037012006000 -9.621712639244 25.198463370850 4.200181468580 177.811599000534 -50.256689842064 32.629234607569 -51.960039809058 -44.377706253378
0.040013006000 -9.568847687530 21.014561252125 4.237884573712 175.313186290463 -49.812742030821 29.699058574311 -52.141329087643 -49.183869703123
0.043014007000 -9.516180950923 17.460840869458 4.275554325115 173.089240558320 -49.887471302667 24.248825953931 -53.088792423124 -53.168549294380
0.046015007000 -9.455480471261 14.371229478782 4.314048801479 171.064201479128 -49.839608538959 23.179942701401 -53.178893152509 -55.688760015514
0.049016008000 -9.398780858020 11.530971356833 4.343752619306 169.035121108590 -49.761559100085 21.709448441578 -53.066713907013 -60.664655553042
0.052017008000 -9.359997443949 8.906528332038 4.368750094380 167.063712575160 -49.232437108769 18.077195841197 -53.622282105750 -64.917642515481
0.055018009000 -9.327940532416 6.327859745533 4.387801419486 165.099386777555 -49.296706594545 15.478959347772 -53.719815632079 -66.508974861025
0.058019009000 -9.304106215797 4.084503144692 4.402147677680 163.285803113490 -48.910912845892 13.754744984347 -53.836510824267 -68.295371890068
0.061020010000 -9.261315155112 2.353607187113 4.438437587540 161.852311390990 -49.889162770458 14.257329621244 -54.249999178302 -69.600884664783
0.064021010000 -9.248788685645 0.589292217869 4.439216599158 160.457641558466 -49.295982999728 9.385923703614 -54.635563927164 -71.972198356695
0.067022011000 -9.235291997675 -1.160310620191 4.444887232886 158.966379968393 -48.953630124617 7.599340481157 -54.560860104336 -75.040301105489
0.070023011000 -9.227251952597 -2.901566831535 4.444429647914 157.410939126346 -49.013873868696 4.789947367351 -55.208631115846 -74.648787626849
0.073024012000 -9.222896574882 -4.631429725933 4.439794839741 155.822868409683 -49.051329317668 5.066695817491 -54.845873696345 -72.368136407193
0.076025012000 -9.219283445756 -6.365181713301 4.434854437266 154.233469687134 -48.800300557114 2.981734863745 -55.014834142512 -77.191192123142
0.079026013000 -9.218271631931 -8.213048262397 4.425373643174 152.649577617339 -48.879084483548 0.992179106281 -55.243411602295 -74.012807249497
0.082027013000 -9.206703932268 -9.919289356503 4.417532340942 151.043482467464 -48.696557498850 -1.876934322522 -55.684984214324 -71.567262127905
0.085028014000 -9.191401428305 -11.585588196066 4.412775269649 149.427106543396 -49.105514011743 -1.375433802724 -55.786076451710 -70.382023860302
0.088029014000 -9.171011184610 -13.118126273034 4.405462421006 147.863736138999 -48.562533205247 -4.654296046003 -56.384668001907 -70.662510955427
0.091030015000 -9.146473231729 -14.613068674723 4.401180472500 146.336423815450 -48.927162517043 -6.245832370051 -55.868879145298 -69.875288893994
0.094031015000 -9.128001558795 -15.994651639740 4.397911104147 144.858834934059 -48.595987172121 -6.771560572147 -56.797499401138 -67.466796191517
0.097032016000 -9.104593091480 -17.377829079010 4.392543813356 143.403034405157 -48.516624488046 -6.446755587048 -56.460779152948 -63.208037187378
0.100033016000 -9.088810743912 -18.648045573846 4.385749632158 141.995187091933 -48.632811355019 -9.189147984265 -56.735376025219 -54.861552398596
0.103034017000 -9.072461701320 -19.866237133476 4.376878199553 140.635581901605 -48.865909032356 -10.496571294460 -57.115748723180 -55.295580737898
0.106035017000 -9.061337128223 -21.090719181190 4.364749943490 139.271368958823 -48.698446589168 -10.033587987013 -57.634802186991 -60.142858492258
0.109036018000 -9.056771920636 -22.277117972060 4.349095427866 137.914157888292 -48.775733246965 -12.359119837531 -57.398857798717 -48.055563093154
0.112037018000 -9.046595374878 -23.451510958366 4.333207615270 136.520600869759 -48.321099475652 -12.614979419321 -58.166699443005 -50.203853616199
0.115038019000 -9.043854423604 -24.650198709512 4.319488159764 135.088231140837 -48.592133782500 -14.888977414284 -57.939998441361 -53.755876394092
0.118039019000 -9.040241986516 -25.899677469389 4.302782563598 133.666902771560 -48.648203458708 -16.022188078764 -57.185478448184 -51.051613029198
0.121040020000 -9.035267760139 -27.060287091867 4.287868878859 132.257507058848 -48.280141993190 -17.341398092628 -57.017648886282 -55.691604371918
0.124041020000 -9.029684068064 -28.288344224077 4.274630958434 130.852510692258 -48.617782240582 -16.565070870828 -58.135639360836 -47.358788236530
0.127042021000 -9.015365471702 -29.677146499025 4.259631422762 129.419965712122 -48.305977057985 -18.732607905245 -58.149740286700 -49.642026716793
0.130043021000 -9.001243238700 -30.835930166471 4.246730813993 128.002211390236 -48.418889378346 -19.513420771451 -58.867178883052 -43.203822739740
0.133044022000 -8.988123253501 -31.982635867756 4.234778719089 126.601694870830 -48.594504081934 -21.593446386331 -59.340637786508 -37.343517461547
0.136045022000 -8.970862421566 -33.033647208765 4.223243339072 125.236707852054 -48.209207695520 -21.141579181143 -61.170948141773 -38.908478582999
0.139046023000 -8.936509366115 -33.903026466359 4.214115427253 124.048229491518 -48.162487353396 -24.985893793163 -63.959010956447 -23.188066844481
0.142047023000 -8.909214659655 -35.384134711673 4.228402743939 122.579454762018 -48.215597320911 -23.970609918953 -61.507272287055 -24.982070968764
0.145048024000 -8.921756263775 -36.427227228215 4.206536647998 121.242840010057 -48.407431978300 -25.863536779641 -68.352799880371 -15.981980160440
0.148049024000 -8.919235109262 -37.381206033247 4.186114395740 119.958317634258 -47.917595609914 -28.320519564716 -66.507743466764 -10.504177586176
0.151050025000 -8.910625871264 -38.398644493312 4.166340980420 118.650516810161 -48.240743974878 -26.876002967736 -69.798640289604 23.964644179479
0.154051025000 -8.905499489938 -39.398076436668 4.143678402557 117.287774164967 -48.842329627977 -26.108448990319 -76.118237290793 73.570749523497
0.157052026000 -8.900676220722 -40.408388814147 4.125070251104 115.922911817379 -48.233667061675 -31.039872677905 -69.412303394434 105.698034091308
0.160053026000 -8.894010676977 -41.434160133001 4.105715014631 114.562473979586 -47.900116435667 -29.426821412773 -67.042676580044 108.120948538948
0.163054027000 -8.885059181226 -42.525517586794 4.088122619908 113.167400576636 -48.401666769636 -30.681620611767 -64.489484753104 134.028210388824
0.166055027000 -8.871894973151 -43.557485729719 4.071852672968 111.797033539408 -47.902324345541 -30.069302192825 -61.821580773427 147.125631765042
0.169056028000 -8.860605218823 -44.621303730736 4.058250858946 110.441399537728 -48.224590876474 -36.385738672842 -61.074398405135 140.955488935376
0.172057028000 -8.845410262410 -45.736912751063 4.040178899219 109.084896608069 -48.176746702045 -33.566010118103 -60.052813740073 141.322388203483
0.175058029000 -8.823011669570 -46.856507457929 4.024625744311 107.750170089554 -48.302932120138 -34.787097952386 -58.369917258559 155.023275208644
0.178059029000 -8.804411674505 -47.860891943238 4.010066081427 106.423072351376 -47.943057500889 -33.542606942351 -57.593569423795 156.708338610076
0.181060030000 -8.782069991449 -48.858095480974 3.988889655728 105.112698933202 -48.209211607768 -36.262010315562 -58.697705496266 162.083187758005
0.184061030000 -8.757902557970 -49.765413191217 3.967771623894 103.851455486695 -48.062605339152 -39.560615719553 -57.749912641454 163.971449462066
0.187062031000 -8.743367637499 -50.700350477326 3.944252760715 102.585376057317 -48.436267749893 -39.519052752869 -57.292542103809 167.166119272363
0.190063031000 -8.721622173385 -51.567171874108 3.914964616192 101.355190634543 -48.206613919444 -39.788487268019 -57.713615139551 177.295086614375
0.193064032000 -8.704282557299 -52.414988827003 3.888555332522 100.084054636666 -48.671271472765 -39.917247446127 -56.769863772788 -179.630577073916
0.196065032000 -8.689496891256 -53.269631939346 3.861350229964 98.816017075261 -48.225034853773 -39.287145051703 -56.986329067751 -173.382995348648
0.199066033000 -8.669862872916 -54.108198485595 3.836336414973 97.566319063667 -48.361547694689 -41.023073514347 -56.212022949095 -177.001240430859
0.202067033000 -8.652032050461 -54.961054959311 3.812550398971 96.320870528477 -48.352876202278 -42.045925468830 -57.089987889925 -174.292927755436
0.205068034000 -8.638469940206 -55.805743095540 3.794931393103 95.045961247067 -48.087221109115 -43.012375544403 -57.585198570030 -172.212321331028
0.208069034000 -8.621939792550 -56.691825987814 3.778514891398 93.796206371132 -48.094510848605 -43.236368631186 -57.707356401840 -162.879346123935
0.211070035000 -8.605206951525 -57.586092969240 3.760613206924 92.541440105677 -48.418181098510 -45.181425456084 -57.063923274730 -171.504111405655
0.214071035000 -8.590036693402 -58.505455051533 3.743766176919 91.307751917801 -48.374632644623 -45.709553116769 -57.980393568747 -167.901798482736
0.217072036000 -8.574576705339 -59.436874589016 3.730495767544 90.025763248416 -48.196472260196 -45.257432629279 -58.582900065630 -168.323571973563
0.220073036000 -8.555860528465 -60.455431303288 3.714802619123 88.774085618266 -48.185338433253 -46.959422970327 -57.653820790716 -171.077310269560
0.223074037000 -8.531796882946 -61.356829227510 3.696820378849 87.485764578330 -47.991589121029 -49.227006857725 -59.161715186988 -175.234301174878
0.226075037000 -8.520521646991 -62.218248144125 3.678874308618 86.214961046889 -48.380335536761 -48.329401996105 -58.522530984610 177.274489536335
0.229076038000 -8.503757500949 -63.100319772850 3.660322028503 84.971649648395 -47.965196017080 -48.182538080632 -58.945496136595 172.663774392935
0.232077038000 -8.486363989019 -63.926063685175 3.639304443519 83.709209147314 -48.180557660747 -50.383881221011 -58.844430867247 161.181656720488
0.235078039000 -8.474824674929 -64.724728798930 3.614946566957 82.440469954254 -48.100774546716 -52.587176088649 -57.603017896827 159.220690272880
0.238079039000 -8.464827175194 -65.558871609451 3.591138624726 81.141765934978 -47.828873242868 -53.149135879936 -56.346137282580 151.816501400341
0.241080040000 -8.456522363193 -66.349898925130 3.570703442659 79.842653063128 -48.164180403970 -52.164286717775 -56.294991585280 143.176930463014
0.244081040000 -8.443087598112 -67.114052982339 3.546051013678 78.580237479040 -48.175332714349 -54.494425652588 -55.184498307159 141.779341841964
0.247082041000 -8.424155765778 -67.867867382743 3.528683364584 77.330797993446 -48.252040029608 -53.894590585903 -54.406257604271 136.471646332391
0.250083041000 -8.384229178152 -68.646795734571 3.522436045571 76.089040846507 -47.796247059968 -56.087702932258 -53.768401880128 134.493697381151
0.253084042000 -8.349877325776 -69.621709683864 3.518247689087 74.737286009029 -47.817702617027 -58.803690935663 -53.314360432684 130.674506065200
0.256085042000 -8.345418871696 -70.666948378514 3.496778758310 73.366049093231 -47.886910226380 -58.559713043484 -53.657639952551 133.214830712093
0.259086043000 -8.346001898420 -71.522850688350 3.471950686592 72.120478716914 -48.204938176277 -57.945050888419 -52.969405027922 138.404924013505
0.262087043000 -8.336096295076 -72.411437845148 3.450443399928 70.893472416260 -47.912623732216 -58.512897045288 -52.339565332282 142.429552402903
0.265088044000 -8.321332211130 -73.295954627071 3.429781875471 69.642790218288 -47.769942476120 -60.482929020239 -51.739624103778 145.389177400977
0.268089044000 -8.300968561094 -74.203304257463 3.407949301973 68.403480079096 -47.468275461527 -58.361694986382 -51.029400394392 146.176352315793
0.271090045000 -8.274845558136 -75.035835499272 3.384781792349 67.205647012076 -47.771729119906 -61.383066069927 -50.425975731015 149.382353461889
0.274091045000 -8.261226229626 -75.823053516419 3.357699635742 65.960367842602 -47.874378909579 -62.575019319805 -50.266623932699 150.804476987711
0.277092046000 -8.239901260728 -76.602806444836 3.333880174872 64.712206289837 -47.609233655574 -64.548964598177 -49.995624592807 154.373725128089
0.280093046000 -8.217159816050 -77.330857744821 3.310269940718 63.490239800702 -47.741888159114 -63.162381243510 -49.431445333014 157.898760842752
0.283094047000 -8.199332590671 -78.092677813632 3.283386326420 62.206642437081 -47.506072198070 -64.610335068369 -49.112902404956 159.721200137667
0.286095047000 -8.182993702134 -78.821667399610 3.260519766290 60.948273704020 -47.853899641651 -64.963073228822 -49.451347051905 164.127987485984
0.289096048000 -8.165719966405 -79.560262115571 3.233487583447 59.726455523394 -47.769814798122 -68.126522912633 -49.136956891233 167.978877124176
0.292097048000 -8.145252230599 -80.287179343928 3.211949236217 58.475417298976 -47.517903811735 -67.855944476929 -49.004933392350 171.795270983729
0.295098049000 -8.127737703988 -81.033027061171 3.186716454992 57.256501004346 -47.816481676132 -68.327025370788 -49.016683636068 174.842489488411
0.298099049000 -8.115635649646 -81.732995387761 3.162290425416 56.033600326840 -47.529877061940 -69.613337371345 -48.919519442609 178.062386624176
0.301100050000 -8.098984624084 -82.470913210278 3.138505380089 54.843702821604 -47.732058821901 -69.096024136897 -49.329252706671 -179.073678027820
0.304101050000 -8.082548439724 -83.227648937882 3.114057018499 53.624690909161 -47.610845059095 -71.504131021201 -49.677270790915 -176.766906433434
0.307102051000 -8.070053890070 -83.977785919793 3.087777042205 52.457544271119 -47.567202465544 -73.386955002952 -50.284454684084 -172.218316901319
0.310103051000 -8.051628578891 -84.746249765902 3.064455797865 51.260655322974 -47.708800452270 -72.469529183297 -50.850395077464 -165.273226556671
0.313104052000 -8.033871385312 -85.532743007738 3.038969777994 50.065236899178 -47.649949514935 -74.111792830808 -51.019729457474 -166.442436464555
0.316105052000 -8.009969631036 -86.314295098523 3.006691262484 48.892396593194 -47.833331836419 -75.507921500102 -51.738476661849 -164.006711419247
0.319106053000 -7.992787546220 -87.015914776587 2.981863117641 47.697232598033 -47.836803303884 -76.897627920045 -52.175485309812 -163.212791118164
0.322107053000 -7.979413202644 -87.703429862134 2.953278370314 46.476023297579 -47.694410055326 -77.726313989662 -53.055336457605 -164.647303212899
0.325108054000 -7.967362599118 -88.402487126665 2.925586312407 45.237711054604 -47.599385995507 -77.984733231297 -55.027738111464 -166.860589267982
0.328109054000 -7.954037755298 -89.069872819041 2.898107611822 43.982863711436 -47.936691697669 -78.722910286741 -55.999485005988 -170.420838423597
0.331110055000 -7.938627915814 -89.758862996196 2.873293099973 42.731283332787 -47.687059753303 -77.716400710347 -57.059313191362 -174.310813686406
0.334111055000 -7.927654220234 -90.405165085496 2.848122467293 41.522664353553 -47.481354718858 -78.755950857596 -57.394317954218 176.864982350360
0.337112056000 -7.913699530986 -91.102078613609 2.824126790681 40.284781146302 -47.703974349485 -78.381482622741 -59.321632790624 157.553603773400
0.340113056000 -7.902636917259 -91.735237702075 2.801326259222 39.051878252407 -47.612297556308 -79.200707524128 -59.439149881871 146.447887868951
0.343114057000 -7.892667521396 -92.403914199594 2.780851813156 37.831387094809 -47.653958420164 -81.488835843668 -57.150027317632 126.531071086110
0.346115057000 -7.881282931061 -93.078435433314 2.760893493317 36.665285356156 -47.491528690444 -81.738224993359 -56.274531071343 119.425770741626
0.349116058000 -7.870670305368 -93.726991830466 2.740297329902 35.475394895079 -47.716406009251 -82.300515483023 -54.296047708087 116.613770052946
0.352117058000 -7.848152968668 -94.446096605021 2.713576654073 34.328565010555 -47.333530971297 -83.937345802033 -53.801711743061 113.089856848754
0.355118059000 -7.826665366801 -95.097441214285 2.696531410584 33.188744094117 -47.490891219189 -86.096578400423 -52.422953422797 113.200422531511
0.358119059000 -7.805519719644 -95.786539700113 2.672677136153 32.053963810553 -47.636939633643 -83.374935012316 -52.584844916353 111.812087325150
0.361120060000 -7.770735344680 -96.575053466732 2.660901700930 30.894015225193 -47.401542230105 -84.458165230113 -51.852077242446 107.401618554566
0.364121060000 -7.732670202826 -97.394299086862 2.639720956586 29.622114642383 -47.085336791377 -85.863109800460 -50.477527209665 108.161036314231
0.367122061000 -7.712709660006 -98.135236153711 2.615451670139 28.364481456796 -47.500863969671 -88.298660693980 -49.991892153536 108.459264667706
0.370123061000 -7.696589992804 -98.873001962759 2.586778348241 27.140305039467 -47.570093389567 -88.473046999262 -48.907072126410 110.859226212843
0.373124062000 -7.682959960189 -99.536164280480 2.559427821799 25.955862244770 -47.324952247154 -89.900316789979 -48.606251751978 112.902675398185
0.376125062000 -7.669746405309 -100.222204624141 2.533209911530 24.756668411684 -47.489970862854 -89.755936493534 -48.329376734627 117.900851871794
0.379126063000 -7.656626274638 -100.897979324129 2.509812665971 23.572243603396 -47.451528630413 -91.278246816163 -47.454222417936 121.504436821023
0.382127063000 -7.639563846871 -101.564262086235 2.484328721347 22.388231892270 -47.517008875755 -91.794934072756 -47.060503620887 123.174118266413
0.385128064000 -7.623489315197 -102.192860971252 2.459566384823 21.212310383993 -47.398319338047 -91.704549779270 -46.793006261230 125.704377719405
0.388129064000 -7.613745688924 -102.864573188906 2.435627438607 20.029770959901 -47.534109368749 -93.954315734316 -46.776040750819 130.953469294551
0.391130065000 -7.603346326189 -103.488882483304 2.409256049661 18.869564967608 -47.199513133301 -93.549753346029 -46.510688271818 133.852148717265
0.394131065000 -7.588749062360 -104.108315058223 2.384906937903 17.762796201479 -47.434695172075 -96.734969043449 -46.373618507587 137.667981081203
0.397132066000 -7.573961592906 -104.783410041874 2.355759964701 16.640220345641 -47.662532010470 -96.757581026639 -46.558469149846 140.466119231641
0.400133066000 -7.561513511392 -105.457646006808 2.327260179680 15.515399628733 -47.503928120940 -98.177811635829 -46.647730298504 141.372577799582
0.403134067000 -7.544033927803 -106.155784249273 2.296750843407 14.373033223455 -47.452520822142 -97.376117237698 -46.940287501933 146.704093182057
