Frequency,S11_Magnitude,S11_Phase,S12_Magnitude,S12_Phase,S21_Magnitude,S21_Phase,S22_Magnitude,S22_Phase,
1000000,-12.741019,-130.0228258,-70.53568211,-110.3169254,-6.450795048,-76.98202246,-40.25601045,-170.6261754,
4001000,-15.94019528,157.038747,-68.07557827,121.5521536,-0.8167669241,-131.5433993,-42.3982682,93.92122077,
7002001,-15.01335552,124.1381173,-62.33359039,88.59655483,0.6934578307,-145.9385178,-44.13963041,58.8808942,
10003001,-13.74677475,102.1839649,-57.66190239,90.93916124,1.544488076,-152.7678719,-45.7232052,38.05092084,
13004002,-12.59954045,85.97083388,-56.66241472,76.30839815,2.215357032,-157.1608185,-46.55862584,24.67293861,
16005002,-11.65511161,73.35523821,-54.23063482,73.83929952,2.778324171,-161.1315585,-47.62093268,10.70388271,
19006003,-10.97941247,62.9797376,-53.9384249,66.39923589,3.193159376,-164.6841629,-48.4659429,-0.159831628,
22007003,-10.4931609,54.39422296,-51.72418176,59.08658078,3.524235043,-167.8310543,-49.20098604,-7.452064333,
25008004,-10.22168788,46.06832731,-51.214265,51.90899751,3.70628117,-171.7995025,-50.04761082,-20.2314472,
28009004,-9.958507365,40.30338472,-51.00733264,48.94152635,3.91424674,-174.3782736,-50.56112162,-27.34540329,
31010005,-9.770771818,35.29493876,-51.53892513,44.67807075,4.075596118,-176.7537309,-50.86213554,-31.34294911,
34011005,-9.685101437,29.92914593,-50.2112448,37.60501595,4.150986888,-179.4992605,-51.87615251,-37.8799046,
37012006,-9.623008823,25.16724965,-50.13581422,32.89500531,4.201931048,177.8043844,-51.70025348,-42.00963187,
40013006,-9.572997734,20.98466827,-49.62045648,30.04073932,4.237390831,175.3083329,-52.38631992,-47.04194611,
43014007,-9.516140366,17.43264585,-49.79153649,25.08107874,4.275259436,173.0884623,-52.6913509,-53.1228774,
46015007,-9.456442249,14.36630353,-49.77825207,22.592295,4.313462717,171.0444409,-53.18902751,-55.03706001,
49016008,-9.40339105,11.53752205,-49.66359304,19.79926278,4.345525288,169.0280292,-53.20300241,-59.98446746,
52017008,-9.364739489,8.853906963,-49.30939967,17.49013164,4.369438003,167.0338996,-53.5600753,-62.26088597,
55018009,-9.328681898,6.289533875,-49.38837189,16.2631825,4.38869216,165.0720513,-54.12199449,-64.51530159,
58019009,-9.304846605,4.071974292,-49.06233154,13.51977122,4.40228827,163.2578245,-53.22923621,-69.34972915,
61020010,-9.262111693,2.298966035,-50.08359919,13.78525647,4.439959649,161.8507684,-53.9830204,-68.86291613,
64021010,-9.251423123,0.5560371491,-48.88519617,8.922426588,4.439751378,160.4535976,-54.54502943,-74.1339388,
67022011,-9.241954171,-1.218854046,-48.8304629,6.354335707,4.444614589,158.9366864,-54.26129996,-75.66020288,
70023011,-9.232936278,-2.937365833,-48.99458435,4.754539816,4.444032319,157.3862672,-54.72153843,-73.1941425,
73024012,-9.221379717,-4.669679232,-48.90920027,4.842754515,4.440213262,155.8109333,-54.94741679,-75.46538121,
76025012,-9.221409449,-6.398286636,-48.90575939,3.527139701,4.435233303,154.2246628,-54.95491352,-73.75199936,
79026013,-9.220712889,-8.219821799,-48.66532059,0.5572461665,4.42599709,152.6425079,-55.24865323,-76.63241485,
82027013,-9.208120146,-9.961808326,-48.91688982,-0.679937628,4.418809629,151.0401673,-55.18298392,-69.226553,
85028014,-9.191158725,-11.58519722,-48.74476619,-3.636102638,4.412510987,149.4316393,-55.71180631,-73.40027863,
88029014,-9.170630672,-13.16347889,-48.61095316,-1.951624728,4.406134184,147.8642503,-55.71038629,-76.16721285,
91030015,-9.149946472,-14.63957139,-48.85551513,-4.880026619,4.401392202,146.3305677,-56.21540051,-66.53503578,
94031015,-9.127432657,-16.03609693,-48.64120062,-3.98452262,4.398025536,144.8455572,-56.94880708,-62.897934,
97032016,-9.110420555,-17.41688671,-48.60286016,-7.262581609,4.390424624,143.398122,-56.22313877,-62.63645242,
100033016,-9.090059309,-18.67087783,-48.71049494,-8.153030732,4.38619396,141.9894212,-57.55100444,-57.21225076,
103034017,-9.070562943,-19.89493457,-48.67956273,-9.851162295,4.37715032,140.6128935,-57.09992452,-53.51486833,
106035017,-9.0646903,-21.11112094,-48.46823793,-9.387753117,4.363839421,139.2624202,-57.57748733,-56.49010093,
109036018,-9.055989839,-22.27927219,-48.42819376,-11.69615832,4.349678863,137.9116103,-57.9916092,-52.25849238,
112037018,-9.051309068,-23.46423284,-48.6297333,-11.76221529,4.334963699,136.5181275,-58.72401372,-47.74625589,
115038019,-9.044250173,-24.67119557,-48.47422509,-14.5161854,4.318289445,135.0905424,-58.82510414,-51.38252427,
118039019,-9.042150357,-25.8474279,-48.26424623,-14.56011259,4.304303408,133.6810169,-57.65781253,-54.45500429,
121040020,-9.03919589,-27.09833821,-48.28954239,-17.00465277,4.288966893,132.2545791,-57.2405248,-48.96495559,
124041020,-9.030473961,-28.36076209,-48.42845346,-16.31927148,4.276021113,130.8308819,-57.93662925,-44.15463836,
127042021,-9.014795614,-29.64556724,-48.60128536,-19.55644523,4.261885597,129.4126901,-57.29702515,-48.6135385,
130043021,-8.999491085,-30.83542755,-48.62433727,-20.41610826,4.248670424,127.9996884,-58.21310493,-46.43218947,
133044022,-8.989846275,-32.00787084,-48.3678741,-20.98989138,4.23453676,126.5976921,-58.9675714,-45.71595161,
136045022,-8.972391935,-33.05678302,-48.33777671,-22.77079205,4.224995501,125.2566088,-61.14247911,-41.60441251,
139046023,-8.953606844,-33.96578122,-47.83237457,-23.85344826,4.211110698,123.999079,-62.13147371,-18.03805581,
142047023,-8.899383418,-35.37539732,-48.30983672,-23.26862691,4.233415681,122.6010049,-61.55826263,-10.27451147,
145048024,-8.91831544,-36.47624117,-47.9767575,-24.22923826,4.208516042,121.2343575,-66.23428506,-16.94412431,
148049024,-8.916536634,-37.40468166,-48.41429898,-22.24220835,4.18757741,119.9406662,-66.97729389,-0.9836841436,
151050025,-8.911693807,-38.43736851,-48.35745079,-24.83098005,4.167714215,118.6267389,-73.88762926,17.36202824,
154051025,-8.908544307,-39.43149514,-48.25024043,-28.23814152,4.145707458,117.2666622,-71.29343314,55.87778022,
157052026,-8.901575593,-40.46035666,-48.51527057,-30.89434213,4.126092175,115.9076491,-69.81836104,104.2310874,
160053026,-8.893354227,-41.45719813,-48.55334254,-28.62505692,4.108387338,114.5666269,-66.32429167,107.136221,
163054027,-8.883540029,-42.50474333,-48.18072102,-28.9688699,4.089300442,113.1864702,-64.45268983,142.3105126,
166055027,-8.874430242,-43.55776992,-48.18268607,-32.58807191,4.074092991,111.8025013,-63.21908637,146.3788521,
169056028,-8.862154176,-44.65155327,-48.51875688,-33.07668147,4.058704155,110.4335164,-61.39914737,151.2417639,
172057028,-8.848905671,-45.74837826,-48.17894352,-34.35036136,4.041055813,109.0726457,-60.28291145,151.8722676,
175058029,-8.827964808,-46.89209101,-48.52071396,-33.82667723,4.023990247,107.738373,-60.20825768,156.1272424,
178059029,-8.806685377,-47.88882311,-48.16360605,-32.65239271,4.009252303,106.4169896,-57.94852898,161.4787933,
181060030,-8.784584394,-48.86369144,-48.07786433,-39.78421812,3.989299925,105.1156165,-57.91146504,159.9261236,
184061030,-8.763198718,-49.80826393,-48.26444454,-37.59502722,3.964995537,103.8372214,-57.81022039,167.8505636,
187062031,-8.745192388,-50.67216106,-48.29603152,-40.01054392,3.945144804,102.590154,-57.64306979,171.8329779,
190063031,-8.723416807,-51.5509331,-48.48231447,-39.68405783,3.915029567,101.3705281,-57.4267859,173.0586805,
193064032,-8.708635476,-52.44785176,-48.64617277,-42.02783084,3.889692524,100.0883027,-57.99081934,-171.4850653,
196065032,-8.690018381,-53.27933091,-48.36297144,-39.17793127,3.861155849,98.83013712,-56.04617014,-178.4346581,
199066033,-8.673580359,-54.11268227,-48.37141257,-40.39468855,3.835894868,97.57471228,-56.69032639,-170.9518384,
202067033,-8.655854953,-54.9581516,-48.23433159,-41.41003688,3.814077314,96.33427106,-57.21991719,-171.4038363,
205068034,-8.641221613,-55.83260288,-48.26905734,-43.38330523,3.795987591,95.06559314,-57.61676521,-170.8266355,
208069034,-8.621865334,-56.71217485,-48.03568438,-43.44790323,3.779769914,93.81393908,-58.32568863,-165.1886917,
211070035,-8.609386926,-57.60526722,-48.25590987,-43.15334032,3.760961623,92.55920477,-57.80338505,-167.7799916,
214071035,-8.594507068,-58.50426598,-48.16347824,-45.04162913,3.744967193,91.29974543,-59.11521378,-167.1081413,
217072036,-8.576369317,-59.48890401,-48.35421379,-46.72991371,3.73040605,90.02828358,-58.71521523,-165.373077,
220073036,-8.557879925,-60.46502505,-48.18954145,-47.87998765,3.714063087,88.77515243,-58.387264,-173.8814751,
223074037,-8.535882125,-61.41334791,-47.86673597,-48.05121015,3.697489267,87.48859889,-59.34611449,-177.6133052,
226075037,-8.51776843,-62.27004788,-48.28711972,-50.22139917,3.680054826,86.21557153,-59.14984756,177.3269499,
229076038,-8.505841135,-63.10768614,-48.31123707,-51.19842164,3.660950911,84.95338634,-60.04151662,167.9187001,
232077038,-8.488386312,-63.96152652,-47.99380729,-49.72014658,3.637763197,83.68132992,-58.91486255,164.3792416,
235078039,-8.478120779,-64.77377379,-48.16279972,-50.99667741,3.615466075,82.43188531,-58.60939126,155.1593105,
238079039,-8.465058439,-65.58037855,-47.97090508,-54.0368839,3.592059314,81.1278208,-56.75558158,145.5579876,
241080040,-8.456242999,-66.43517719,-48.09397498,-51.98418928,3.570934794,79.81575781,-56.42289802,140.8620932,
244081040,-8.448289044,-67.22056407,-48.03352317,-54.38760331,3.547728001,78.52424865,-55.3281997,138.883993,
247082041,-8.436400688,-68.02532105,-48.13764851,-52.8924863,3.52827581,77.25946882,-53.96228816,135.3777557,
250083041,-8.424785765,-68.80235839,-47.91218885,-54.59358712,3.505348403,76.0060241,-53.61175189,134.3617064,
253084042,-8.397711186,-69.50432588,-47.7669865,-57.67782149,3.498079318,74.78079889,-53.27430379,130.99023,
256085042,-8.353546972,-70.38520503,-47.86527872,-56.95943487,3.49696984,73.48883674,-53.11514757,132.0964693,
259086043,-8.331419602,-71.41592881,-48.10927906,-56.70616438,3.482568047,72.15329411,-53.2276637,134.390407,
262087043,-8.321689437,-72.37478567,-47.95132179,-58.07089153,3.458637588,70.86275004,-52.13866047,137.7730747,
265088044,-8.311993199,-73.3256214,-47.96370676,-59.96610741,3.434709625,69.61148863,-51.65385845,141.3421185,
268089044,-8.294523056,-74.22539997,-47.80401509,-60.6612264,3.413057872,68.37041772,-51.33144258,145.2433551,
271090045,-8.27060745,-75.11541062,-47.80911769,-61.54161288,3.387464331,67.13371279,-50.64798909,147.9125859,
274091045,-8.255131451,-75.85550486,-47.89887466,-63.76372699,3.361111878,65.92557898,-50.37263616,151.6904882,
277092046,-8.235680688,-76.59161247,-47.74248064,-63.34167784,3.337023437,64.66970665,-49.87293977,154.2882559,
280093046,-8.21636585,-77.38403929,-47.9471846,-62.68437867,3.31011224,63.47423081,-49.545374,155.6002444,
283094047,-8.198631704,-78.14238576,-47.61935938,-64.66666588,3.282818054,62.17772298,-49.43335961,159.0855497,
286095047,-8.17964219,-78.85008156,-47.80536661,-65.61085873,3.259318534,60.920545,-49.07800516,162.1027743,
289096048,-8.163081348,-79.57395504,-47.56505503,-65.79054932,3.235130591,59.7024611,-49.24494511,168.1106052,
292097048,-8.14442138,-80.31497883,-47.44871389,-69.42696839,3.211405105,58.44303723,-49.06864567,173.2651562,
295098049,-8.128042162,-81.06410028,-47.82146161,-68.06082108,3.187266462,57.21882655,-49.16408842,172.5135937,
298099049,-8.112459665,-81.77758145,-47.60351697,-69.5473047,3.164477609,56.00457415,-49.16763356,178.0714403,
301100050,-8.097191172,-82.49310758,-47.70475917,-70.7038179,3.139688967,54.82166464,-49.35772841,-177.4123481,
304101050,-8.087836999,-83.26128518,-47.50175887,-72.35295343,3.114674206,53.6278747,-49.81126493,-173.9899256,
307102051,-8.071741669,-83.99444715,-47.83441541,-71.43214717,3.091286574,52.44346045,-49.86567587,-172.9048065,
310103051,-8.056046835,-84.76557216,-47.62262126,-74.04531889,3.066341255,51.27802071,-50.67443885,-170.7269176,
313104052,-8.039014095,-85.5798046,-47.87489145,-75.15757368,3.040395507,50.06916353,-50.66290024,-165.5404064,
316105052,-8.014468823,-86.34221984,-48.03502261,-77.0904694,3.008817881,48.89934343,-51.63266209,-165.2733977,
319106053,-7.993395513,-87.04765579,-47.70937929,-76.37990145,2.98343311,47.67705416,-52.63588265,-163.3897626,
322107053,-7.983919231,-87.75449413,-47.66844155,-77.2083911,2.953988759,46.46509697,-53.34023426,-166.7834078,
325108054,-7.965124479,-88.42521715,-47.78603233,-77.92174849,2.928146919,45.21820284,-55.11644646,-166.3243095,
328109054,-7.951286863,-89.10066604,-47.94171926,-77.81713878,2.900538198,43.96849407,-56.18881069,-175.2849343,
331110055,-7.938840823,-89.7514113,-47.35783938,-77.89941326,2.872887875,42.72076928,-57.37141584,-177.3680117,
334111055,-7.925779097,-90.45254288,-47.67340591,-81.03406627,2.848544249,41.48957739,-57.68616183,174.4164334,
337112056,-7.912222545,-91.12722581,-47.72459253,-78.5396478,2.825455231,40.25683584,-58.97500478,151.436545,
340113056,-7.904200155,-91.76347374,-47.4730841,-80.4590118,2.8024068,39.05513712,-57.94728025,147.2059687,
343114057,-7.8913141,-92.46105032,-47.57611469,-80.71619341,2.780395986,37.8227571,-56.7629737,128.9290286,
346115057,-7.880475611,-93.10761369,-47.85006734,-81.10521087,2.758484883,36.62545873,-56.21030441,121.9207898,
349116058,-7.872184188,-93.77813069,-47.4141013,-82.71076675,2.7369955,35.44930138,-54.08078397,114.5168273,
352117058,-7.850847109,-94.44230654,-47.55387947,-84.63044339,2.710429605,34.28635371,-53.07041077,111.1801343,
355118059,-7.83615714,-95.16311303,-47.54675245,-84.26941548,2.691110641,33.16930321,-52.73242083,112.7389304,
358119059,-7.814769757,-95.81317622,-47.48602409,-84.09608182,2.667863026,32.05158371,-51.43301199,109.870061,
361120060,-7.782368717,-96.51872194,-47.49080579,-85.41378599,2.654131299,30.92302382,-51.67281727,108.9972364,
364121060,-7.742833652,-97.33799173,-47.66287622,-87.9793453,2.634738869,29.70153189,-50.85110313,105.0612764,
367122061,-7.710896767,-98.07748249,-47.26137458,-89.40923463,2.617124655,28.44929991,-50.1089489,107.3652122,
370123061,-7.692429346,-98.79933034,-47.34742601,-90.02367507,2.594379144,27.19845414,-49.28561339,110.4604639,
373124062,-7.678618265,-99.54210825,-47.35239165,-88.14935698,2.565480441,25.963147,-48.42012486,114.9545757,
376125062,-7.669167232,-100.2069374,-47.35492702,-90.34885982,2.53728234,24.78565982,-47.95463595,117.5420541,
379126063,-7.653117079,-100.8789652,-47.48453185,-89.9853356,2.513082598,23.59501126,-47.64306509,120.1795704,
382127063,-7.637916225,-101.5557122,-47.30698091,-92.06830202,2.48650868,22.3770172,-46.90823212,122.2882618,
385128064,-7.620869904,-102.1794287,-47.21703313,-93.52484987,2.462587764,21.21227968,-47.12412762,127.1702686,
388129064,-7.612861725,-102.8250927,-47.3580387,-94.53231589,2.438874996,20.03093418,-46.62178232,129.5028808,
391130065,-7.600264109,-103.4695877,-47.14378809,-93.31957422,2.410318667,18.88257963,-46.55442293,132.5017925,
394131065,-7.58918467,-104.1282601,-47.29381064,-94.34786663,2.387569282,17.76444655,-46.56813087,137.5422538,
397132066,-7.572836224,-104.7689505,-47.37034457,-93.86335394,2.356728754,16.62954692,-46.68345105,139.8315757,
400133066,-7.561622805,-105.4665592,-47.37380105,-96.99027621,2.326836988,15.51312196,-46.71685154,143.0337588,
403134067,-7.541699177,-106.1291838,-47.1239726,-98.0151753,2.296346358,14.34018376,-46.72762968,146.2254027,
406135067,-7.526381633,-106.8431047,-47.2760141,-98.27476726,2.265374017,13.20685891,-47.37853226,146.7633558,
409136068,-7.502397565,-107.5448763,-47.45845088,-97.99837574,2.238451118,11.99734353,-47.40660658,150.1398782,
412137068,-7.483317829,-108.1946219,-47.14463562,-100.5653086,2.210925079,10.81553116,-47.90295201,150.8716188,
415138069,-7.463406822,-108.783901,-47.30867264,-101.6136322,2.182935688,9.656980802,-48.78982063,151.6959567,
418139069,-7.453713915,-109.3784943,-47.0414026,-101.5765992,2.157633155,8.504363697,-48.91591721,152.1740832,
421140070,-7.442142991,-110.024815,-47.48613858,-103.9032141,2.132131509,7.294797239,-49.26525736,152.8427805,
424141070,-7.428049645,-110.6200048,-47.2370389,-102.4492994,2.108018041,6.090157459,-49.78381729,149.2919616,
427142071,-7.41190764,-111.2058434,-47.07783746,-104.2485351,2.085465548,4.913096383,-50.69255298,146.6779014,
430143071,-7.404205095,-111.8233216,-47.32488212,-103.5581627,2.063012906,3.766821506,-51.33867112,141.6556159,
433144072,-7.392754705,-112.386354,-47.15521214,-105.1478099,2.040616697,2.595965191,-51.63076754,134.9155849,
436145072,-7.386671418,-112.9519466,-47.07143722,-104.9001365,2.013627336,1.472660592,-51.53403118,124.2912599,
439146073,-7.381695879,-113.5486522,-46.99029448,-107.7770728,1.987440973,0.3186768247,-51.66380837,123.5650321,
442147073,-7.369913454,-114.1496786,-47.09284501,-106.4463853,1.962331206,-0.8094056229,-50.63743785,111.9678013,
445148074,-7.368834817,-114.7939202,-47.06827269,-108.1888546,1.933215431,-1.950737648,-50.54070464,106.741032,
448149074,-7.354764305,-115.4041041,-46.92402425,-109.4717818,1.90549114,-3.074658873,-49.6664577,103.5836766,
451150075,-7.339033027,-116.0323856,-46.74418373,-108.9908901,1.878956015,-4.251941283,-49.31321103,102.350259,
454151075,-7.334641811,-116.7122305,-47.06669684,-111.7262531,1.851149591,-5.372669285,-48.36610479,102.6297398,
457152076,-7.311412502,-117.3764033,-46.93162437,-111.1528688,1.82446373,-6.537895927,-48.00901736,101.8979866,
460153076,-7.293658165,-117.9819915,-47.14605189,-112.5013603,1.801113477,-7.668455025,-47.39565469,102.2224645,
463154077,-7.288233357,-118.5783559,-46.91146724,-114.056205,1.776659367,-8.839802756,-46.97123506,104.9970452,
466155077,-7.277546554,-119.1573662,-46.79200801,-113.6973116,1.753989769,-9.94760615,-46.51337644,105.4134434,
469156078,-7.262881964,-119.7325695,-46.68615464,-116.4305143,1.731244826,-11.0495641,-46.21349993,104.9216849,
472157078,-7.25002239,-120.2960328,-46.63574379,-114.9395709,1.708732525,-12.18903934,-45.57527937,108.1576278,
475158079,-7.241989667,-120.8562006,-46.79218914,-115.4759589,1.685581498,-13.26830777,-45.27868522,109.1558996,
478159079,-7.235288171,-121.4870319,-46.72362445,-118.1493713,1.659630003,-14.36982456,-44.92116309,110.8549617,
481160080,-7.229616912,-122.065353,-47.0052343,-117.6600844,1.633596877,-15.44530802,-44.41737289,114.1526793,
484161080,-7.220220851,-122.6478633,-46.62350828,-116.941955,1.609974583,-16.5400102,-44.25127702,115.9566618,
487162081,-7.212094526,-123.267245,-46.77059201,-119.5872821,1.582678354,-17.65591925,-44.13801468,120.9953749,
490163081,-7.203389735,-123.8481779,-46.62658572,-119.8723276,1.5544295,-18.75301426,-44.03600558,124.6830074,
493164082,-7.190243588,-124.4587441,-46.94300111,-121.5904621,1.529643506,-19.91748056,-43.9313317,126.7282824,
496165082,-7.178119819,-125.0980751,-46.74997532,-123.4071249,1.504121597,-21.00945071,-43.91310943,131.7545661,
499166083,-7.16594503,-125.7718168,-46.64072292,-123.8833171,1.473542835,-22.16209877,-43.90743495,132.1679675,
502167083,-7.140960897,-126.4351708,-46.71963698,-124.2839003,1.455506216,-23.30854873,-44.23491952,136.0385903,
505168084,-7.125405063,-127.1291972,-47.01351717,-123.7390961,1.433674002,-24.46830218,-44.23223161,140.2729403,
508169084,-7.111492776,-127.7468325,-46.72656756,-125.9392766,1.40885212,-25.59041703,-44.2999816,142.5580455,
511170085,-7.099254959,-128.348904,-46.78612512,-126.1041547,1.386028318,-26.73412116,-44.86220981,145.5099313,
514171085,-7.092483509,-128.9190944,-46.59756395,-128.5120709,1.36252987,-27.85338061,-45.3213846,149.087777,
517172086,-7.082175784,-129.4846614,-46.75866364,-128.9324742,1.341840644,-28.96227892,-45.89575255,150.0195394,
520173086,-7.079158812,-130.0650882,-46.92446406,-128.324612,1.316891255,-30.07426575,-46.34311831,150.7815655,
523174087,-7.075861197,-130.5960607,-46.87616876,-129.3600575,1.2952548,-31.21433,-47.1982242,153.7421776,
526175087,-7.074333747,-131.1492536,-46.61191332,-130.4989012,1.266537452,-32.30907148,-48.04518377,151.5458716,
529176088,-7.068988987,-131.6892063,-47.02802404,-131.757823,1.243246948,-33.41965225,-48.70906639,152.0738001,
532177088,-7.067133157,-132.2078164,-47.00124728,-130.4749332,1.221231721,-34.54376379,-49.60787411,149.2987228,
